CFG file created by "MC's PlotXY" program,999,1999
3,3A,0D
1,GERA  -X0001A , ,c,A,9.412349e-002,-3.729639e+003,0.0,0,99999,1.0,1.0,p
2,GERB  -X0001B , ,c,A,1.070524e-001,-6.976087e+003,0.0,0,99999,1.0,1.0,p
3,GERC  -X0001C , ,c,A,8.718164e-002,-3.729956e+003,0.0,0,99999,1.0,1.0,p
50
0
0.0,500001
16/42/2021,11:42:33.017000
16/42/2021,11:42:33.017000
ASCII
5.000000e-004
1,0,39624,65164,42783
2,1999,39624,65164,42783
3,3999,39624,65164,42783
4,5999,39624,65164,42783
5,7999,39624,65164,42783
6,9999,39624,65164,42783
7,11999,39624,65164,42783
8,13999,39624,65164,42783
9,15999,39624,65164,42783
10,17999,39624,65164,42783
11,19999,39624,65164,42783
12,21999,39624,65164,42783
13,23999,39624,65164,42783
14,25999,39624,65164,42783
15,27999,39624,65164,42783
16,29999,39624,65164,42783
17,31999,39624,65164,42783
18,33999,39624,65164,42783
19,35999,39624,65164,42783
20,37999,39624,65164,42783
21,39999,39624,65164,42783
22,41999,39624,65164,42783
23,43999,39624,65164,42783
24,45999,39624,65164,42783
25,47999,39624,65164,42783
26,49999,39624,65164,42783
27,51999,39624,65164,42783
28,53999,39624,65164,42783
29,55999,39624,65164,42783
30,57999,39624,65164,42783
31,59999,39624,65164,42783
32,61999,39624,65164,42783
33,63999,39624,65164,42783
34,65999,39624,65164,42783
35,67999,39624,65164,42783
36,69999,39624,65164,42783
37,71999,39624,65164,42783
38,73999,39624,65164,42783
39,75999,39624,65164,42783
40,77999,39624,65164,42783
41,79999,39624,65164,42783
42,81999,39624,65164,42783
43,83999,39624,65164,42783
44,85999,39624,65164,42783
45,87999,39624,65164,42783
46,89999,39624,65164,42783
47,91999,39624,65164,42783
48,93999,39624,65164,42783
49,95999,39624,65164,42783
50,97999,39624,65164,42783
51,99999,39624,65164,42783
52,101999,39624,65164,42783
53,103999,39624,65164,42783
54,105999,39624,65164,42783
55,107999,39624,65164,42783
56,109999,39624,65164,42783
57,111999,39624,65164,42783
58,113999,39624,65164,42783
59,115999,39624,65164,42783
60,117999,39624,65164,42783
61,119999,39624,65164,42783
62,121999,39624,65164,42783
63,123999,39624,65164,42783
64,125999,39624,65164,42783
65,127999,39624,65164,42783
66,129999,39624,65164,42783
67,131999,39624,65164,42783
68,133999,39624,65164,42783
69,135999,39624,65164,42783
70,137999,39624,65164,42783
71,139999,39624,65164,42783
72,141999,39624,65164,42783
73,143999,39624,65164,42783
74,145999,39624,65164,42783
75,147999,39624,65164,42783
76,149999,39624,65164,42783
77,151999,39624,65164,42783
78,153999,39624,65164,42783
79,155999,39624,65164,42783
80,157999,39624,65164,42783
81,159999,39624,65164,42783
82,161999,39624,65164,42783
83,163999,39624,65164,42783
84,165999,39624,65164,42783
85,167999,39624,65164,42783
86,169999,39624,65164,42783
87,171999,39624,65164,42783
88,173999,39624,65164,42783
89,175999,39624,65164,42783
90,177999,39624,65164,42783
91,179999,39624,65164,42783
92,181999,39624,65164,42783
93,183999,39624,65164,42783
94,185999,39624,65164,42783
95,187999,39624,65164,42783
96,189999,39624,65164,42783
97,191999,39624,65164,42783
98,193999,39624,65164,42783
99,195999,39624,65164,42783
100,197999,39624,65164,42783
101,199999,39624,65164,42783
102,201999,39624,65164,42783
103,203999,39624,65164,42783
104,205999,39624,65164,42783
105,207999,39624,65164,42783
106,209999,39624,65164,42783
107,211999,39624,65164,42783
108,213999,39624,65164,42783
109,215999,39624,65164,42783
110,217999,39624,65164,42783
111,219999,39624,65164,42783
112,221999,39624,65164,42783
113,223999,39624,65164,42783
114,225999,39624,65164,42783
115,227999,39624,65164,42783
116,229999,39624,65164,42783
117,231999,39624,65164,42783
118,233999,39624,65164,42783
119,235999,39624,65164,42783
120,237999,39624,65164,42783
121,239999,39624,65164,42783
122,241999,39624,65164,42783
123,243999,39624,65164,42783
124,245999,39624,65164,42783
125,247999,39624,65164,42783
126,249999,39624,65164,42783
127,251999,39624,65164,42783
128,253999,39624,65164,42783
129,255999,39624,65164,42783
130,257999,39624,65164,42783
131,259999,39624,65164,42783
132,261999,39624,65164,42783
133,263999,39624,65164,42783
134,265999,39624,65164,42783
135,267999,39624,65164,42783
136,269999,39624,65164,42783
137,271999,39624,65164,42783
138,273999,39624,65164,42783
139,275999,39624,65164,42783
140,277999,39624,65164,42783
141,279999,39624,65164,42783
142,281999,39624,65164,42783
143,283999,39624,65164,42783
144,285999,39624,65164,42783
145,287999,39624,65164,42783
146,289999,39624,65164,42783
147,291999,39624,65164,42783
148,293999,39624,65164,42783
149,295999,39624,65164,42783
150,297999,39624,65164,42783
151,299999,39624,65164,42783
152,301999,39624,65164,42783
153,303999,39624,65164,42783
154,305999,39624,65164,42783
155,307999,39624,65164,42783
156,309999,39624,65164,42783
157,311999,39624,65164,42783
158,313999,39624,65164,42783
159,315999,39624,65164,42783
160,317999,39624,65164,42783
161,319999,39624,65164,42783
162,321999,39624,65164,42783
163,323999,39624,65164,42783
164,325999,39624,65164,42783
165,327999,39624,65164,42783
166,329999,39624,65164,42783
167,331999,39624,65164,42783
168,333999,39624,65164,42783
169,335999,39624,65164,42783
170,337999,39624,65164,42783
171,339999,39624,65164,42783
172,341999,39624,65164,42783
173,343999,39624,65164,42783
174,345999,39624,65164,42783
175,347999,39624,65164,42783
176,349999,39624,65164,42783
177,351999,39624,65164,42783
178,353999,39624,65164,42783
179,355999,39624,65164,42783
180,357999,39624,65164,42783
181,359999,39624,65164,42783
182,361999,39624,65164,42783
183,363999,39624,65164,42783
184,365999,39624,65164,42783
185,367999,39624,65164,42783
186,369999,39624,65164,42783
187,371999,39624,65164,42783
188,373999,39624,65164,42783
189,375999,39624,65164,42783
190,377999,39624,65164,42783
191,379999,39624,65164,42783
192,381999,39624,65164,42783
193,383999,39624,65164,42783
194,385999,39624,65164,42783
195,387999,39624,65164,42783
196,389999,39624,65164,42783
197,391999,39624,65164,42783
198,393999,39624,65164,42783
199,395999,39624,65164,42783
200,397999,39624,65164,42783
201,399999,39624,65164,42783
202,401999,39624,65164,42783
203,403999,39624,65164,42783
204,405999,39624,65164,42783
205,407999,39624,65164,42783
206,409999,39624,65164,42783
207,411999,39624,65164,42783
208,413999,39624,65164,42783
209,415999,39624,65164,42783
210,417999,39624,65164,42783
211,419999,39624,65164,42783
212,421999,39624,65164,42783
213,423999,39624,65164,42783
214,425999,39624,65164,42783
215,427999,39624,65164,42783
216,429999,39624,65164,42783
217,431999,39624,65164,42783
218,433999,39624,65164,42783
219,435999,39624,65164,42783
220,437999,39624,65164,42783
221,439999,39624,65164,42783
222,441999,39624,65164,42783
223,443999,39624,65164,42783
224,445999,39624,65164,42783
225,447999,39624,65164,42783
226,449999,39624,65164,42783
227,451999,39624,65164,42783
228,453999,39624,65164,42783
229,455999,39624,65164,42783
230,457999,39624,65164,42783
231,459999,39624,65164,42783
232,461999,39624,65164,42783
233,463999,39624,65164,42783
234,465999,39624,65164,42783
235,467999,39624,65164,42783
236,469999,39624,65164,42783
237,471999,39624,65164,42783
238,473999,39624,65164,42783
239,475999,39624,65164,42783
240,477999,39624,65164,42783
241,479999,39624,65164,42783
242,481999,39624,65164,42783
243,483999,39624,65164,42783
244,485999,39624,65164,42783
245,487999,39624,65164,42783
246,489999,39624,65164,42783
247,491999,39624,65164,42783
248,493999,39624,65164,42783
249,495999,39624,65164,42783
250,497999,39624,65164,42783
251,499999,39624,65164,42783
252,501999,39624,65164,42783
253,503999,39624,65164,42783
254,505999,39624,65164,42783
255,507999,39624,65164,42783
256,509999,39624,65164,42783
257,511999,39624,65164,42783
258,513999,39624,65164,42783
259,515999,39624,65164,42783
260,517999,39624,65164,42783
261,519999,39624,65164,42783
262,521999,39624,65164,42783
263,523999,39624,65164,42783
264,525999,39624,65164,42783
265,527999,39624,65164,42783
266,529999,39624,65164,42783
267,531999,39624,65164,42783
268,533999,39624,65164,42783
269,535999,39624,65164,42783
270,537999,39624,65164,42783
271,539999,39624,65164,42783
272,541999,39624,65164,42783
273,543999,39624,65164,42783
274,545999,39624,65164,42783
275,547999,39624,65164,42783
276,549999,39624,65164,42783
277,551999,39624,65164,42783
278,553999,39624,65164,42783
279,555999,39624,65164,42783
280,557999,39624,65164,42783
281,559999,39624,65164,42783
282,561999,39624,65164,42783
283,563999,39624,65164,42783
284,565999,39624,65164,42783
285,567999,39624,65164,42783
286,569999,39624,65164,42783
287,571999,39624,65164,42783
288,573999,39624,65164,42783
289,575999,39624,65164,42783
290,577999,39624,65164,42783
291,579999,39624,65164,42783
292,581999,39624,65164,42783
293,583999,39624,65164,42783
294,585999,39624,65164,42783
295,587999,39624,65164,42783
296,589999,39624,65164,42783
297,591999,39624,65164,42783
298,593999,39624,65164,42783
299,595999,39624,65164,42783
300,597999,39624,65164,42783
301,599999,39624,65164,42783
302,601999,39624,65164,42783
303,603999,39624,65164,42783
304,605999,39624,65164,42783
305,607999,39624,65164,42783
306,609999,39624,65164,42783
307,611999,39624,65164,42783
308,613999,39624,65164,42783
309,615999,39624,65164,42783
310,617999,39624,65164,42783
311,619999,39624,65164,42783
312,621999,39624,65164,42783
313,623999,39624,65164,42783
314,625999,39624,65164,42783
315,627999,39624,65164,42783
316,629999,39624,65164,42783
317,631999,39624,65164,42783
318,633999,39624,65164,42783
319,635999,39624,65164,42783
320,637999,39624,65164,42783
321,639999,39624,65164,42783
322,641999,39624,65164,42783
323,643999,39624,65164,42783
324,645999,39624,65164,42783
325,647999,39624,65164,42783
326,649999,39624,65164,42783
327,651999,39624,65164,42783
328,653999,39624,65164,42783
329,655999,39624,65164,42783
330,657999,39624,65164,42783
331,659999,39624,65164,42783
332,661999,39624,65164,42783
333,663999,39624,65164,42783
334,665999,39624,65164,42783
335,667999,39624,65164,42783
336,669999,39624,65164,42783
337,671999,39624,65164,42783
338,673999,39624,65164,42783
339,675999,39624,65164,42783
340,677999,39624,65164,42783
341,679999,39624,65164,42783
342,681999,39624,65164,42783
343,683999,39624,65164,42783
344,685999,39624,65164,42783
345,687999,39624,65164,42783
346,689999,39624,65164,42783
347,691999,39624,65164,42783
348,693999,39624,65164,42783
349,695999,39624,65164,42783
350,697999,39624,65164,42783
351,699999,39624,65164,42783
352,701999,39624,65164,42783
353,703999,39624,65164,42783
354,705999,39624,65164,42783
355,707999,39624,65164,42783
356,709999,39624,65164,42783
357,711999,39624,65164,42783
358,713999,39624,65164,42783
359,715999,39624,65164,42783
360,717999,39624,65164,42783
361,719999,39624,65164,42783
362,721999,39624,65164,42783
363,723999,39624,65164,42783
364,725999,39624,65164,42783
365,727999,39624,65164,42783
366,729999,39624,65164,42783
367,731999,39624,65164,42783
368,733999,39624,65164,42783
369,735999,39624,65164,42783
370,737999,39624,65164,42783
371,739999,39624,65164,42783
372,741999,39624,65164,42783
373,743999,39624,65164,42783
374,745999,39624,65164,42783
375,747999,39624,65164,42783
376,749999,39624,65164,42783
377,751999,39624,65164,42783
378,753999,39624,65164,42783
379,755999,39624,65164,42783
380,757999,39624,65164,42783
381,759999,39624,65164,42783
382,761999,39624,65164,42783
383,763999,39624,65164,42783
384,765999,39624,65164,42783
385,767999,39624,65164,42783
386,769999,39624,65164,42783
387,771999,39624,65164,42783
388,773999,39624,65164,42783
389,775999,39624,65164,42783
390,777999,39624,65164,42783
391,779999,39624,65164,42783
392,781999,39624,65164,42783
393,783999,39624,65164,42783
394,785999,39624,65164,42783
395,787999,39624,65164,42783
396,789999,39624,65164,42783
397,791999,39624,65164,42783
398,793999,39624,65164,42783
399,795999,39624,65164,42783
400,797999,39624,65164,42783
401,799999,39624,65164,42783
402,801999,39624,65164,42783
403,803999,39624,65164,42783
404,805999,39624,65164,42783
405,807999,39624,65164,42783
406,809999,39624,65164,42783
407,811999,39624,65164,42783
408,813999,39624,65164,42783
409,815999,39624,65164,42783
410,817999,39624,65164,42783
411,819999,39624,65164,42783
412,821999,39624,65164,42783
413,823999,39624,65164,42783
414,825999,39624,65164,42783
415,827999,39624,65164,42783
416,829999,39624,65164,42783
417,831999,39624,65164,42783
418,833999,39624,65164,42783
419,835999,39624,65164,42783
420,837999,39624,65164,42783
421,839999,39624,65164,42783
422,841999,39624,65164,42783
423,843999,39624,65164,42783
424,845999,39624,65164,42783
425,847999,39624,65164,42783
426,849999,39624,65164,42783
427,851999,39624,65164,42783
428,853999,39624,65164,42783
429,855999,39624,65164,42783
430,857999,39624,65164,42783
431,859999,39624,65164,42783
432,861999,39624,65164,42783
433,863999,39624,65164,42783
434,865999,39624,65164,42783
435,867999,39624,65164,42783
436,869999,39624,65164,42783
437,871999,39624,65164,42783
438,873999,39624,65164,42783
439,875999,39624,65164,42783
440,877999,39624,65164,42783
441,879999,39624,65164,42783
442,881999,39624,65164,42783
443,883999,39624,65164,42783
444,885999,39624,65164,42783
445,887999,39624,65164,42783
446,889999,39624,65164,42783
447,891999,39624,65164,42783
448,893999,39624,65164,42783
449,895999,39624,65164,42783
450,897999,39624,65164,42783
451,899999,39624,65164,42783
452,901999,39624,65164,42783
453,903999,39624,65164,42783
454,905999,39624,65164,42783
455,907999,39624,65164,42783
456,909999,39624,65164,42783
457,911999,39624,65164,42783
458,913999,39624,65164,42783
459,915999,39624,65164,42783
460,917999,39624,65164,42783
461,919999,39624,65164,42783
462,921999,39624,65164,42783
463,923999,39624,65164,42783
464,925999,39624,65164,42783
465,927999,39624,65164,42783
466,929999,39624,65164,42783
467,931999,39624,65164,42783
468,933999,39624,65164,42783
469,935999,39624,65164,42783
470,937999,39624,65164,42783
471,939999,39624,65164,42783
472,941999,39624,65164,42783
473,943999,39624,65164,42783
474,945999,39624,65164,42783
475,947999,39624,65164,42783
476,949999,39624,65164,42783
477,951999,39624,65164,42783
478,953999,39624,65164,42783
479,955999,39624,65164,42783
480,957999,39624,65164,42783
481,959999,39624,65164,42783
482,961999,39624,65164,42783
483,963999,39624,65164,42783
484,965999,39624,65164,42783
485,967999,39624,65164,42783
486,969999,39624,65164,42783
487,971999,39624,65164,42783
488,973999,39624,65164,42783
489,975999,39624,65164,42783
490,977999,39624,65164,42783
491,979999,39624,65164,42783
492,981999,39624,65164,42783
493,983999,39624,65164,42783
494,985999,39624,65164,42783
495,987999,39624,65164,42783
496,989999,39624,65164,42783
497,991999,39624,65164,42783
498,993999,39624,65164,42783
499,995999,39624,65164,42783
500,997999,39624,65164,42783
501,999999,39624,65164,42783
502,1001999,39624,65164,42783
503,1003999,39624,65164,42783
504,1005999,39624,65164,42783
505,1007999,39624,65164,42783
506,1009999,39624,65164,42783
507,1011999,39624,65164,42783
508,1013999,39624,65164,42783
509,1015999,39624,65164,42783
510,1017999,39624,65164,42783
511,1019999,39624,65164,42783
512,1021999,39624,65164,42783
513,1023999,39624,65164,42783
514,1025999,39624,65164,42783
515,1027999,39624,65164,42783
516,1029999,39624,65164,42783
517,1031999,39624,65164,42783
518,1033999,39624,65164,42783
519,1035999,39624,65164,42783
520,1037999,39624,65164,42783
521,1039999,39624,65164,42783
522,1041999,39624,65164,42783
523,1043999,39624,65164,42783
524,1045999,39624,65164,42783
525,1047999,39624,65164,42783
526,1049999,39624,65164,42783
527,1051999,39624,65164,42783
528,1053999,39624,65164,42783
529,1055999,39624,65164,42783
530,1057999,39624,65164,42783
531,1059999,39624,65164,42783
532,1061999,39624,65164,42783
533,1063999,39624,65164,42783
534,1065999,39624,65164,42783
535,1067999,39624,65164,42783
536,1069999,39624,65164,42783
537,1071999,39624,65164,42783
538,1073999,39624,65164,42783
539,1075999,39624,65164,42783
540,1077999,39624,65164,42783
541,1079999,39624,65164,42783
542,1081999,39624,65164,42783
543,1083999,39624,65164,42783
544,1085999,39624,65164,42783
545,1087999,39624,65164,42783
546,1089999,39624,65164,42783
547,1091999,39624,65164,42783
548,1093999,39624,65164,42783
549,1095999,39624,65164,42783
550,1097999,39624,65164,42783
551,1099999,39624,65164,42783
552,1101999,39624,65164,42783
553,1103999,39624,65164,42783
554,1105999,39624,65164,42783
555,1107999,39624,65164,42783
556,1109999,39624,65164,42783
557,1111999,39624,65164,42783
558,1113999,39624,65164,42783
559,1115999,39624,65164,42783
560,1117999,39624,65164,42783
561,1119999,39624,65164,42783
562,1121999,39624,65164,42783
563,1123999,39624,65164,42783
564,1125999,39624,65164,42783
565,1127999,39624,65164,42783
566,1129999,39624,65164,42783
567,1131999,39624,65164,42783
568,1133999,39624,65164,42783
569,1135999,39624,65164,42783
570,1137999,39624,65164,42783
571,1139999,39624,65164,42783
572,1141999,39624,65164,42783
573,1143999,39624,65164,42783
574,1145999,39624,65164,42783
575,1147999,39624,65164,42783
576,1149999,39624,65164,42783
577,1151999,39624,65164,42783
578,1153999,39624,65164,42783
579,1155999,39624,65164,42783
580,1157999,39624,65164,42783
581,1159999,39624,65164,42783
582,1161999,39624,65164,42783
583,1163999,39624,65164,42783
584,1165999,39624,65164,42783
585,1167999,39624,65164,42783
586,1169999,39624,65164,42783
587,1171999,39624,65164,42783
588,1173999,39624,65164,42783
589,1175999,39624,65164,42783
590,1177999,39624,65164,42783
591,1179999,39624,65164,42783
592,1181999,39624,65164,42783
593,1183999,39624,65164,42783
594,1185999,39624,65164,42783
595,1187999,39624,65164,42783
596,1189999,39624,65164,42783
597,1191999,39624,65164,42783
598,1193999,39624,65164,42783
599,1195999,39624,65164,42783
600,1197999,39624,65164,42783
601,1199999,39624,65164,42783
602,1201999,39624,65164,42783
603,1203999,39624,65164,42783
604,1205999,39624,65164,42783
605,1207999,39624,65164,42783
606,1209999,39624,65164,42783
607,1211999,39624,65164,42783
608,1213999,39624,65164,42783
609,1215999,39624,65164,42783
610,1217999,39624,65164,42783
611,1219999,39624,65164,42783
612,1221999,39624,65164,42783
613,1223999,39624,65164,42783
614,1225999,39624,65164,42783
615,1227999,39624,65164,42783
616,1229999,39624,65164,42783
617,1231999,39624,65164,42783
618,1233999,39624,65164,42783
619,1235999,39624,65164,42783
620,1237999,39624,65164,42783
621,1239999,39624,65164,42783
622,1241999,39624,65164,42783
623,1243999,39624,65164,42783
624,1245999,39624,65164,42783
625,1247999,39624,65164,42783
626,1249999,39624,65164,42783
627,1251999,39624,65164,42783
628,1253999,39624,65164,42783
629,1255999,39624,65164,42783
630,1257999,39624,65164,42783
631,1259999,39624,65164,42783
632,1261999,39624,65164,42783
633,1263999,39624,65164,42783
634,1265999,39624,65164,42783
635,1267999,39624,65164,42783
636,1269999,39624,65164,42783
637,1271999,39624,65164,42783
638,1273999,39624,65164,42783
639,1275999,39624,65164,42783
640,1277999,39624,65164,42783
641,1279999,39624,65164,42783
642,1281999,39624,65164,42783
643,1283999,39624,65164,42783
644,1285999,39624,65164,42783
645,1287999,39624,65164,42783
646,1289999,39624,65164,42783
647,1291999,39624,65164,42783
648,1293999,39624,65164,42783
649,1295999,39624,65164,42783
650,1297999,39624,65164,42783
651,1299999,39624,65164,42783
652,1301999,39624,65164,42783
653,1303999,39624,65164,42783
654,1305999,39624,65164,42783
655,1307999,39624,65164,42783
656,1309999,39624,65164,42783
657,1311999,39624,65164,42783
658,1313999,39624,65164,42783
659,1315999,39624,65164,42783
660,1317999,39624,65164,42783
661,1319999,39624,65164,42783
662,1321999,39624,65164,42783
663,1323999,39624,65164,42783
664,1325999,39624,65164,42783
665,1327999,39624,65164,42783
666,1329999,39624,65164,42783
667,1331999,39624,65164,42783
668,1333999,39624,65164,42783
669,1335999,39624,65164,42783
670,1337999,39624,65164,42783
671,1339999,39624,65164,42783
672,1341999,39624,65164,42783
673,1343999,39624,65164,42783
674,1345999,39624,65164,42783
675,1347999,39624,65164,42783
676,1349999,39624,65164,42783
