TEE-IEDS , 1,1999
 6, 6A, 0D
 1, AAlta: A1,A,A1,kV,0.706221E-05,-.114808    , 0.0,     0, 32767,     1.000000,1,S
 2, BAlta: A2,A,A2,kV,0.123265E-04,-.288792    , 0.0,     0, 32767,     1.000000,1,S
 3, CAlta: A3,A,A3,kV,0.119481E-04,-.146225    , 0.0,     0, 32767,     1.000000,1,S
 4, ABaixa: A4,A,A4,kV,0.230272E-04,-.374430    , 0.0,     0, 32767,     1.000000,1,S
 5, BBaixa: A5,A,A5,kV,0.402108E-04,-.942256    , 0.0,     0, 32767,     1.000000,1,S
 6, CBaixa: A6,A,A6,kV,0.390134E-04,-.477978    , 0.0,     0, 32767,     1.000000,1,S
60
1
20000,     40000
21/08/2021,08:32:11.000000    
21/08/2021,08:32:11.000000    
ASCII
1
         1,         0, 16257, 23429, 12238, 16260, 23433, 12252
         2,        50, 16257, 20911, 14835, 16260, 21062, 14695
         3,       100, 16337, 17666, 18136, 16333, 17853, 17960
         4,       150, 16559, 14308, 21469, 16548, 14471, 21319
         5,       200, 16906, 11349, 24316, 16890, 11489, 24191
         6,       250, 17362,  8777, 26701, 17340,  8895, 26598
         7,       300, 17909,  6576, 28648, 17884,  6674, 28566
         8,       350, 18534,  4730, 30183, 18507,  4809, 30121
         9,       400, 19222,  3220, 31334, 19193,  3282, 31290
        10,       450, 19960,  2026, 32129, 19928,  2073, 32102
        11,       500, 20734,  1129, 32597, 20702,  1162, 32584
        12,       550, 21534,   506, 32767, 21501,   527, 32767
        13,       600, 22348,   137, 32667, 22316,   147, 32678
        14,       650, 23167,     0, 32324, 23136,     0, 32346
        15,       700, 23982,    73, 31767, 23952,    65, 31798
        16,       750, 24785,   335, 31022, 24756,   320, 31060
        17,       800, 25569,   765, 30115, 25541,   744, 30159
        18,       850, 26328,  1344, 29070, 26302,  1318, 29119
        19,       900, 27056,  2051, 27910, 27032,  2022, 27962
        20,       950, 27749,  2868, 26657, 27727,  2837, 26712
        21,      1000, 28403,  3778, 25331, 28383,  3745, 25389
        22,      1050, 29015,  4764, 23953, 28997,  4730, 24011
        23,      1100, 29583,  5810, 22538, 29567,  5776, 22597
        24,      1150, 30105,  6902, 21103, 30091,  6868, 21162
        25,      1200, 30579,  8026, 19663, 30567,  7993, 19721
        26,      1250, 31006,  9170, 18231, 30995,  9139, 18287
        27,      1300, 31384, 10322, 16818, 31375, 10294, 16873
        28,      1350, 31714, 11473, 15436, 31707, 11447, 15488
        29,      1400, 31997, 12614, 14092, 31991, 12591, 14141
        30,      1450, 32233, 13737, 12794, 32229, 13717, 12841
        31,      1500, 32424, 14834, 11550, 32421, 14817, 11594
        32,      1550, 32571, 15899, 10363, 32569, 15886, 10405
        33,      1600, 32676, 16928,  9240, 32675, 16919,  9278
        34,      1650, 32741, 17916,  8182, 32740, 17911,  8217
        35,      1700, 32767, 18861,  7192, 32767, 18859,  7224
        36,      1750, 32757, 19758,  6272, 32758, 19760,  6301
        37,      1800, 32714, 20607,  5422, 32714, 20612,  5448
        38,      1850, 32638, 21406,  4642, 32639, 21415,  4665
        39,      1900, 32533, 22155,  3932, 32534, 22166,  3952
        40,      1950, 32401, 22853,  3290, 32401, 22868,  3307
        41,      2000, 32244, 23500,  2715, 32244, 23518,  2730
        42,      2050, 32064, 24098,  2204, 32063, 24119,  2217
        43,      2100, 31863, 24648,  1755, 31862, 24672,  1766
        44,      2150, 31644, 25151,  1366, 31642, 25177,  1375
        45,      2200, 31408, 25609,  1033, 31405, 25637,  1040
        46,      2250, 31157, 26024,   754, 31153, 26054,   759
        47,      2300, 30893, 26398,   524, 30889, 26430,   528
        48,      2350, 30618, 26733,   341, 30612, 26767,   344
        49,      2400, 30334, 27032,   200, 30327, 27068,   202
        50,      2450, 30041, 27298,    99, 30033, 27335,   101
        51,      2500, 29741, 27532,    35, 29732, 27571,    35
        52,      2550, 29436, 27738,     3, 29425, 27778,     3
        53,      2600, 29126, 27918,     0, 29114, 27958,     0
        54,      2650, 28813, 28075,    24, 28800, 28116,    24
        55,      2700, 28498, 28210,    70, 28483, 28252,    70
        56,      2750, 28181, 28327,   137, 28165, 28369,   137
        57,      2800, 27863, 28428,   221, 27846, 28470,   222
        58,      2850, 27545, 28514,   321, 27526, 28556,   322
        59,      2900, 27227, 28588,   432, 27207, 28630,   434
        60,      2950, 26909, 28652,   553, 26888, 28694,   556
        61,      3000, 26593, 28708,   683, 26570, 28750,   686
        62,      3050, 26278, 28757,   818, 26254, 28799,   822
        63,      3100, 25965, 28802,   957, 25940, 28843,   962
        64,      3150, 25654, 28842,  1100, 25627, 28883,  1106
        65,      3200, 25344, 28880,  1243, 25316, 28920,  1250
        66,      3250, 25037, 28918,  1387, 25008, 28957,  1395
        67,      3300, 24731, 28955,  1529, 24701, 28993,  1538
        68,      3350, 24427, 28992,  1669, 24396, 29030,  1680
        69,      3400, 24126, 29032,  1807, 24094, 29069,  1819
        70,      3450, 23826, 29073,  1941, 23793, 29110,  1954
        71,      3500, 23528, 29118,  2072, 23494, 29153,  2086
        72,      3550, 23231, 29165,  2198, 23196, 29200,  2213
        73,      3600, 22936, 29216,  2319, 22901, 29250,  2336
        74,      3650, 22643, 29271,  2436, 22606, 29305,  2454
        75,      3700, 22350, 29330,  2548, 22313, 29363,  2567
        76,      3750, 22059, 29393,  2655, 22021, 29425,  2675
        77,      3800, 21768, 29461,  2758, 21729, 29491,  2779
        78,      3850, 21478, 29532,  2856, 21438, 29562,  2878
        79,      3900, 21189, 29607,  2949, 21148, 29636,  2972
        80,      3950, 20899, 29686,  3038, 20858, 29714,  3063
        81,      4000, 20610, 29769,  3124, 20569, 29796,  3149
        82,      4050, 20321, 29855,  3206, 20279, 29881,  3232
        83,      4100, 20032, 29944,  3285, 19990, 29970,  3312
        84,      4150, 19743, 30036,  3361, 19700, 30061,  3389
        85,      4200, 19454, 30130,  3435, 19410, 30155,  3464
        86,      4250, 19164, 30227,  3506, 19120, 30251,  3536
        87,      4300, 18873, 30326,  3576, 18829, 30348,  3607
        88,      4350, 18582, 30425,  3645, 18538, 30448,  3677
        89,      4400, 18291, 30527,  3713, 18246, 30548,  3745
        90,      4450, 17999, 30628,  3781, 17954, 30649,  3814
        91,      4500, 17706, 30731,  3848, 17661, 30751,  3882
        92,      4550, 17412, 30833,  3916, 17367, 30852,  3951
        93,      4600, 17118, 30935,  3985, 17073, 30953,  4020
        94,      4650, 16824, 31036,  4055, 16778, 31054,  4090
        95,      4700, 16528, 31136,  4126, 16483, 31154,  4162
        96,      4750, 16232, 31236,  4198, 16187, 31252,  4235
        97,      4800, 15936, 31333,  4273, 15890, 31349,  4310
        98,      4850, 15639, 31429,  4349, 15594, 31445,  4387
        99,      4900, 15342, 31523,  4428, 15297, 31538,  4466
       100,      4950, 15045, 31614,  4510, 14999, 31629,  4548
       101,      5000, 14747, 31703,  4594, 14702, 31717,  4633
       102,      5050, 14449, 31789,  4681, 14404, 31802,  4721
       103,      5100, 14152, 31872,  4771, 14106, 31885,  4811
       104,      5150, 13854, 31952,  4864, 13809, 31964,  4905
       105,      5200, 13557, 32029,  4961, 13512, 32041,  5002
       106,      5250, 13260, 32103,  5060, 13215, 32113,  5102
       107,      5300, 12964, 32172,  5163, 12919, 32183,  5205
       108,      5350, 12668, 32239,  5270, 12623, 32249,  5312
       109,      5400, 12373, 32301,  5380, 12329, 32311,  5422
       110,      5450, 12079, 32360,  5493, 12035, 32369,  5536
       111,      5500, 11786, 32415,  5609, 11742, 32423,  5653
       112,      5550, 11494, 32466,  5729, 11450, 32473,  5773
       113,      5600, 11203, 32513,  5853, 11160, 32520,  5896
       114,      5650, 10914, 32556,  5979, 10871, 32562,  6023
       115,      5700, 10626, 32595,  6109, 10583, 32601,  6153
       116,      5750, 10340, 32630,  6242, 10298, 32635,  6286
       117,      5800, 10056, 32661,  6378, 10014, 32666,  6423
       118,      5850,  9774, 32688,  6517,  9732, 32692,  6562
       119,      5900,  9494, 32711,  6659,  9452, 32714,  6704
       120,      5950,  9216, 32730,  6803,  9175, 32733,  6849
       121,      6000,  8941, 32745,  6950,  8900, 32747,  6996
       122,      6050,  8668, 32756,  7100,  8627, 32758,  7146
       123,      6100,  8397, 32764,  7253,  8357, 32764,  7299
       124,      6150,  8130, 32767,  7407,  8090, 32767,  7454
       125,      6200,  7865, 32767,  7565,  7826, 32766,  7611
       126,      6250,  7603, 32762,  7724,  7564, 32761,  7770
       127,      6300,  7344, 32754,  7885,  7306, 32752,  7932
       128,      6350,  7089, 32742,  8048,  7051, 32740,  8095
       129,      6400,  6836, 32727,  8213,  6799, 32724,  8261
       130,      6450,  6587, 32708,  8380,  6551, 32704,  8427
       131,      6500,  6342, 32685,  8549,  6306, 32681,  8596
       132,      6550,  6100, 32659,  8719,  6064, 32654,  8766
       133,      6600,  5862, 32630,  8890,  5827, 32624,  8938
       134,      6650,  5627, 32597,  9063,  5593, 32590,  9111
       135,      6700,  5396, 32560,  9237,  5363, 32553,  9285
       136,      6750,  5170, 32520,  9412,  5137, 32512,  9460
       137,      6800,  4947, 32477,  9588,  4915, 32469,  9636
       138,      6850,  4728, 32430,  9766,  4697, 32421,  9813
       139,      6900,  4514, 32381,  9944,  4483, 32371,  9991
       140,      6950,  4304, 32328, 10123,  4273, 32317, 10170
       141,      7000,  4098, 32272, 10302,  4068, 32261, 10350
       142,      7050,  3896, 32212, 10482,  3868, 32201, 10530
       143,      7100,  3699, 32150, 10663,  3672, 32138, 10711
       144,      7150,  3507, 32085, 10844,  3480, 32072, 10892
       145,      7200,  3319, 32016, 11026,  3293, 32003, 11073
       146,      7250,  3136, 31945, 11208,  3111, 31931, 11255
       147,      7300,  2958, 31871, 11390,  2933, 31856, 11437
       148,      7350,  2784, 31793, 11573,  2760, 31778, 11619
       149,      7400,  2615, 31713, 11755,  2592, 31697, 11801
       150,      7450,  2451, 31630, 11938,  2429, 31614, 11984
       151,      7500,  2293, 31544, 12120,  2271, 31527, 12166
       152,      7550,  2139, 31456, 12303,  2119, 31438, 12348
       153,      7600,  1990, 31364, 12485,  1971, 31346, 12530
       154,      7650,  1846, 31270, 12667,  1828, 31251, 12712
       155,      7700,  1708, 31173, 12849,  1690, 31154, 12894
       156,      7750,  1574, 31074, 13030,  1558, 31054, 13075
       157,      7800,  1446, 30972, 13211,  1431, 30951, 13255
       158,      7850,  1324, 30867, 13392,  1309, 30846, 13436
       159,      7900,  1206, 30760, 13572,  1193, 30738, 13616
       160,      7950,  1094, 30650, 13752,  1082, 30628, 13795
       161,      8000,   988, 30537, 13930,   976, 30515, 13973
       162,      8050,   886, 30423, 14109,   876, 30400, 14151
       163,      8100,   791, 30305, 14286,   781, 30282, 14328
       164,      8150,   700, 30186, 14463,   692, 30162, 14505
       165,      8200,   616, 30064, 14639,   609, 30040, 14680
       166,      8250,   537, 29940, 14814,   531, 29915, 14855
       167,      8300,   463, 29813, 14987,   458, 29788, 15028
       168,      8350,   395, 29684, 15160,   391, 29659, 15201
       169,      8400,   333, 29553, 15332,   330, 29527, 15372
       170,      8450,   277, 29420, 15503,   275, 29394, 15542
       171,      8500,   226, 29285, 15672,   225, 29258, 15712
       172,      8550,   181, 29148, 15841,   181, 29121, 15879
       173,      8600,   141, 29009, 16008,   143, 28981, 16046
       174,      8650,   107, 28867, 16173,   110, 28839, 16211
       175,      8700,    79, 28724, 16338,    83, 28696, 16375
       176,      8750,    57, 28579, 16500,    62, 28550, 16537
       177,      8800,    41, 28432, 16661,    47, 28403, 16698
       178,      8850,    30, 28284, 16821,    37, 28254, 16857
       179,      8900,    25, 28133, 16979,    33, 28104, 17015
       180,      8950,    26, 27981, 17135,    35, 27951, 17170
       181,      9000,    32, 27828, 17290,    43, 27797, 17325
       182,      9050,    45, 27672, 17443,    56, 27642, 17477
       183,      9100,    63, 27516, 17594,    75, 27485, 17627
       184,      9150,    87, 27357, 17743,   100, 27326, 17776
       185,      9200,   116, 27198, 17890,   131, 27166, 17922
       186,      9250,   152, 27037, 18035,   168, 27005, 18067
       187,      9300,   193, 26875, 18178,   210, 26843, 18210
       188,      9350,   239, 26711, 18319,   258, 26679, 18350
       189,      9400,   292, 26546, 18458,   311, 26514, 18488
       190,      9450,   350, 26381, 18595,   371, 26348, 18624
       191,      9500,   414, 26214, 18729,   435, 26181, 18758
       192,      9550,   483, 26046, 18861,   506, 26013, 18890
       193,      9600,   558, 25877, 18991,   582, 25844, 19019
       194,      9650,   639, 25707, 19119,   664, 25674, 19146
       195,      9700,   725, 25537, 19244,   751, 25504, 19270
       196,      9750,   817, 25365, 19366,   844, 25332, 19392
       197,      9800,   914, 25193, 19486,   942, 25160, 19511
       198,      9850,  1016, 25021, 19603,  1046, 24988, 19628
       199,      9900,  1124, 24848, 19718,  1155, 24814, 19742
       200,      9950,  1238, 24674, 19830,  1270, 24641, 19854
       201,     10000,  1357, 24500, 19940,  1390, 24466, 19962
       202,     10050,  1481, 24325, 20047,  1515, 24292, 20069
       203,     10100,  1610, 24150, 20150,  1645, 24117, 20172
       204,     10150,  1745, 23975, 20252,  1781, 23942, 20272
       205,     10200,  1884, 23799, 20350,  1922, 23767, 20370
       206,     10250,  2029, 23624, 20445,  2068, 23591, 20465
       207,     10300,  2179, 23448, 20538,  2219, 23416, 20556
       208,     10350,  2334, 23273, 20627,  2374, 23240, 20645
       209,     10400,  2494, 23097, 20714,  2535, 23065, 20731
       210,     10450,  2659, 22922, 20797,  2701, 22890, 20814
       211,     10500,  2828, 22746, 20878,  2872, 22715, 20894
       212,     10550,  3003, 22571, 20955,  3047, 22540, 20971
       213,     10600,  3182, 22397, 21030,  3227, 22365, 21044
       214,     10650,  3366, 22222, 21101,  3412, 22191, 21115
       215,     10700,  3554, 22049, 21169,  3601, 22017, 21182
       216,     10750,  3747, 21875, 21234,  3795, 21844, 21246
       217,     10800,  3944, 21702, 21296,  3993, 21672, 21307
       218,     10850,  4146, 21530, 21354,  4196, 21500, 21365
       219,     10900,  4352, 21359, 21409,  4403, 21328, 21420
       220,     10950,  4562, 21188, 21461,  4614, 21158, 21471
       221,     11000,  4777, 21018, 21510,  4829, 20988, 21519
       222,     11050,  4995, 20849, 21555,  5049, 20819, 21563
       223,     11100,  5218, 20680, 21597,  5272, 20651, 21605
       224,     11150,  5444, 20513, 21636,  5499, 20484, 21643
       225,     11200,  5674, 20347, 21672,  5731, 20318, 21678
       226,     11250,  5908, 20182, 21703,  5965, 20153, 21709
       227,     11300,  6146, 20018, 21732,  6204, 19990, 21737
       228,     11350,  6388, 19855, 21757,  6446, 19827, 21761
       229,     11400,  6632, 19694, 21779,  6692, 19666, 21783
       230,     11450,  6881, 19534, 21798,  6941, 19506, 21800
       231,     11500,  7132, 19375, 21813,  7193, 19348, 21815
       232,     11550,  7387, 19218, 21825,  7449, 19191, 21826
       233,     11600,  7645, 19062, 21833,  7708, 19035, 21833
       234,     11650,  7906, 18908, 21838,  7969, 18881, 21838
       235,     11700,  8170, 18755, 21839,  8234, 18729, 21838
       236,     11750,  8437, 18604, 21837,  8502, 18578, 21836
       237,     11800,  8707, 18455, 21832,  8772, 18429, 21830
       238,     11850,  8980, 18307, 21823,  9045, 18282, 21820
       239,     11900,  9255, 18161, 21811,  9321, 18137, 21807
       240,     11950,  9532, 18018, 21795,  9599, 17994, 21791
       241,     12000,  9812, 17876, 21776,  9879, 17852, 21771
       242,     12050, 10094, 17736, 21754, 10162, 17713, 21748
       243,     12100, 10379, 17598, 21728, 10447, 17575, 21722
       244,     12150, 10665, 17462, 21699, 10734, 17440, 21692
       245,     12200, 10954, 17328, 21666, 11023, 17306, 21659
       246,     12250, 11244, 17197, 21631, 11314, 17175, 21622
       247,     12300, 11536, 17067, 21591, 11606, 17046, 21583
       248,     12350, 11830, 16940, 21549, 11901, 16920, 21539
       249,     12400, 12126, 16815, 21503, 12196, 16795, 21493
       250,     12450, 12423, 16693, 21454, 12494, 16674, 21443
       251,     12500, 12721, 16573, 21401, 12792, 16554, 21390
       252,     12550, 13021, 16455, 21346, 13092, 16437, 21334
       253,     12600, 13322, 16340, 21287, 13393, 16322, 21274
       254,     12650, 13623, 16227, 21225, 13695, 16210, 21212
       255,     12700, 13926, 16117, 21159, 13998, 16101, 21146
       256,     12750, 14230, 16010, 21091, 14301, 15994, 21077
       257,     12800, 14534, 15905, 21019, 14606, 15889, 21005
       258,     12850, 14839, 15803, 20944, 14911, 15788, 20929
       259,     12900, 15145, 15703, 20866, 15216, 15689, 20851
       260,     12950, 15451, 15606, 20786, 15522, 15593, 20769
       261,     13000, 15757, 15512, 20702, 15828, 15499, 20685
       262,     13050, 16063, 15421, 20615, 16134, 15409, 20597
       263,     13100, 16370, 15333, 20525, 16441, 15321, 20507
       264,     13150, 16676, 15248, 20432, 16747, 15236, 20413
       265,     13200, 16982, 15165, 20336, 17053, 15154, 20317
       266,     13250, 17288, 15085, 20237, 17359, 15075, 20218
       267,     13300, 17594, 15009, 20136, 17664, 14999, 20116
       268,     13350, 17899, 14935, 20031, 17969, 14926, 20011
       269,     13400, 18204, 14865, 19924, 18274, 14856, 19904
       270,     13450, 18507, 14797, 19814, 18577, 14789, 19793
       271,     13500, 18810, 14732, 19702, 18880, 14725, 19680
       272,     13550, 19112, 14671, 19586, 19182, 14665, 19565
       273,     13600, 19414, 14613, 19469, 19483, 14607, 19447
       274,     13650, 19714, 14557, 19348, 19783, 14552, 19326
       275,     13700, 20012, 14505, 19225, 20081, 14501, 19202
       276,     13750, 20310, 14457, 19100, 20379, 14453, 19077
       277,     13800, 20606, 14411, 18972, 20674, 14408, 18948
       278,     13850, 20900, 14368, 18842, 20968, 14366, 18818
       279,     13900, 21193, 14329, 18709, 21261, 14327, 18685
       280,     13950, 21484, 14293, 18574, 21551, 14292, 18550
       281,     14000, 21773, 14260, 18437, 21840, 14260, 18412
       282,     14050, 22060, 14231, 18298, 22127, 14231, 18273
       283,     14100, 22345, 14205, 18156, 22412, 14205, 18131
       284,     14150, 22628, 14182, 18013, 22695, 14183, 17987
       285,     14200, 22909, 14162, 17867, 22975, 14164, 17841
       286,     14250, 23187, 14146, 17719, 23253, 14148, 17693
       287,     14300, 23463, 14132, 17570, 23528, 14136, 17543
       288,     14350, 23737, 14123, 17418, 23801, 14127, 17392
       289,     14400, 24007, 14116, 17265, 24071, 14121, 17238
       290,     14450, 24275, 14113, 17110, 24339, 14118, 17083
       291,     14500, 24540, 14113, 16953, 24603, 14119, 16926
       292,     14550, 24803, 14116, 16794, 24865, 14123, 16767
       293,     14600, 25062, 14123, 16634, 25124, 14131, 16607
       294,     14650, 25318, 14133, 16472, 25379, 14141, 16445
       295,     14700, 25571, 14147, 16309, 25631, 14155, 16281
       296,     14750, 25820, 14163, 16144, 25880, 14173, 16117
       297,     14800, 26066, 14183, 15978, 26126, 14193, 15950
       298,     14850, 26309, 14206, 15811, 26368, 14217, 15783
       299,     14900, 26548, 14233, 15642, 26606, 14244, 15614
       300,     14950, 26784, 14263, 15472, 26841, 14275, 15444
       301,     15000, 27015, 14296, 15301, 27072, 14309, 15273
       302,     15050, 27243, 14332, 15129, 27299, 14345, 15101
